
**** 05/21/21 17:50:06 ******* PSpice 17.4.0 (Nov 2018) ******* ID# 0 ********

 ** Profile: "SCHEMATIC1-Simulare"  [ f:\facultate\an2\semestrul 2\tehnici cad\proiect\proiect-pspicefiles\schematic1\simulare.sim ] 


 ****     CIRCUIT DESCRIPTION


******************************************************************************




** Creating circuit file "Simulare.cir" 
** WARNING: THIS AUTOMATICALLY GENERATED FILE MAY BE OVERWRITTEN BY SUBSEQUENT SIMULATIONS

*Libraries: 
* Profile Libraries :
* Local Libraries :
.LIB "../../../led_violet.lib" 
.LIB "../../../led_verde.lib" 
.LIB "../../../led_rosu.lib" 
.LIB "../../../led_galben.lib" 
.LIB "../../../led_albastru.lib" 
.LIB "../../../led_alb.lib" 
* From [PSPICE NETLIST] section of C:\Users\Mihai\AppData\Roaming\SPB_Data\cdssetup\OrCAD_PSpice\17.4.0\PSpice.ini file:
.lib "nom.lib" 

*Analysis directives: 
.TRAN  0 5ms 0 0.1m 
.OPTIONS ADVCONV
.PROBE64 V(alias(*)) I(alias(*)) W(alias(*)) D(alias(*)) NOISE(alias(*)) 
.INC "..\SCHEMATIC1.net" 



**** INCLUDING SCHEMATIC1.net ****
* source PROIECT
V_V1         N00884 0 12V
R_R2         0 N33107  15k TC=0,0 
V_V2         N01960 0 20V
R_R3         N33107 N01967  22k TC=0,0 
R_R4         N01960 N01971  22k TC=0,0 
R_R5         0 N01971  10k TC=0,0 
R_R6         N01967 N02054  10k TC=0,0 
R_R7         N02279 0  10k TC=0,0 
R_R8         N02363 N02279  6.5k TC=0,0 
V_V3         +VCC 0 12V
V_V4         -VCC 0 -12V
R_R9         N33107 N00884  50k TC=0,0 
V_V6         N44111 0 5.99V
V_V7         N18597 0 6.99V
V_V8         N18770 0 7.99V
V_V9         N18946 0 8.99V
V_V10         N19125 0 9.99V
V_V11         N20229 0 10.99V
R_R10         N21390 N21545  430 TC=0,0 
R_R11         N21394 N21549  430 TC=0,0 
R_R12         N21398 N21553  485 TC=0,0 
R_R13         N21402 N21557  490 TC=0,0 
R_R14         N21406 N21561  475 TC=0,0 
R_R15         N21414 N21565  440 TC=0,0 
D_D1         N21545 0 ALB 
D_D2         N21549 0 ALBASTRU 
D_D3         N21553 0 GALBEN 
D_D4         N21557 0 ROSU 
D_D5         N21561 0 VERDE 
D_D6         N21565 0 VIOLET 
X_U11         N02363 N44111 +VCC 0 N21390 LM741
X_U12         N02363 N18597 +VCC 0 N21394 LM741
X_U13         N02363 N18770 +VCC 0 N21398 LM741
X_U14         N02363 N18946 +VCC 0 N21402 LM741
X_U15         N02363 N19125 +VCC 0 N21406 LM741
X_U16         N02363 N20229 +VCC 0 N21414 LM741
X_U17A         N02054 N02279 +VCC -VCC N02363 UA772
X_U17B         N01967 N01971 +VCC -VCC N02054 UA772
.PARAM  r=50k

**** RESUMING Simulare.cir ****
.END

**** 05/21/21 17:50:06 ******* PSpice 17.4.0 (Nov 2018) ******* ID# 0 ********

 ** Profile: "SCHEMATIC1-Simulare"  [ f:\facultate\an2\semestrul 2\tehnici cad\proiect\proiect-pspicefiles\schematic1\simulare.sim ] 


 ****     Diode MODEL PARAMETERS


******************************************************************************




               VIOLET          VERDE           ROSU            GALBEN          
          IS   27.627000E-12  543.420000E-12  546.370000E-15  229.480000E-18 
           N    4.995           4.8013          2.6607          2.0169       
          RS   16.165           7.6318         16.514          21.7          


               ALBASTRU        ALB             X_U17A.dx       X_U17A.dy       
          IS  168.200000E-15  394.200000E-18  800.000000E-18  800.000000E-18 
           N    4.4901          3.6253                                       
          RS   11.666          12.352                           1.000000E-03 
         CJO                                                   10.000000E-12 


               X_U17B.dx       X_U17B.dy       
          IS  800.000000E-18  800.000000E-18 
          RS                    1.000000E-03 
         CJO                   10.000000E-12 


               X_U11.x_lm741.dx 
          IS  800.000000E-18 
          RS    1            


               X_U11.x_lm741.dy 
          IS  800.000000E-18 
          RS    1.000000E-03 
         CJO   10.000000E-12 


               X_U12.x_lm741.dx 
          IS  800.000000E-18 
          RS    1            


               X_U12.x_lm741.dy 
          IS  800.000000E-18 
          RS    1.000000E-03 
         CJO   10.000000E-12 


               X_U13.x_lm741.dx 
          IS  800.000000E-18 
          RS    1            


               X_U13.x_lm741.dy 
          IS  800.000000E-18 
          RS    1.000000E-03 
         CJO   10.000000E-12 


               X_U14.x_lm741.dx 
          IS  800.000000E-18 
          RS    1            


               X_U14.x_lm741.dy 
          IS  800.000000E-18 
          RS    1.000000E-03 
         CJO   10.000000E-12 


               X_U15.x_lm741.dx 
          IS  800.000000E-18 
          RS    1            


               X_U15.x_lm741.dy 
          IS  800.000000E-18 
          RS    1.000000E-03 
         CJO   10.000000E-12 


               X_U16.x_lm741.dx 
          IS  800.000000E-18 
          RS    1            


               X_U16.x_lm741.dy 
          IS  800.000000E-18 
          RS    1.000000E-03 
         CJO   10.000000E-12 


**** 05/21/21 17:50:06 ******* PSpice 17.4.0 (Nov 2018) ******* ID# 0 ********

 ** Profile: "SCHEMATIC1-Simulare"  [ f:\facultate\an2\semestrul 2\tehnici cad\proiect\proiect-pspicefiles\schematic1\simulare.sim ] 


 ****     BJT MODEL PARAMETERS


******************************************************************************




               X_U11.x_lm741.qx 
               NPN             
       LEVEL    1            
          IS  800.000000E-18 
          BF   93.75         
          NF    1            
          BR    1            
          NR    1            
         ISS    0            
          RE    0            
          RC    0            
         CJE    0            
         VJE     .75         
         CJC    0            
         VJC     .75         
         MJC     .33         
        XCJC    1            
         CJS    0            
         VJS     .75         
          KF    0            
          AF    1            
          CN    2.42         
           D     .87         


               X_U12.x_lm741.qx 
               NPN             
       LEVEL    1            
          IS  800.000000E-18 
          BF   93.75         
          NF    1            
          BR    1            
          NR    1            
         ISS    0            
          RE    0            
          RC    0            
         CJE    0            
         VJE     .75         
         CJC    0            
         VJC     .75         
         MJC     .33         
        XCJC    1            
         CJS    0            
         VJS     .75         
          KF    0            
          AF    1            
          CN    2.42         
           D     .87         


               X_U13.x_lm741.qx 
               NPN             
       LEVEL    1            
          IS  800.000000E-18 
          BF   93.75         
          NF    1            
          BR    1            
          NR    1            
         ISS    0            
          RE    0            
          RC    0            
         CJE    0            
         VJE     .75         
         CJC    0            
         VJC     .75         
         MJC     .33         
        XCJC    1            
         CJS    0            
         VJS     .75         
          KF    0            
          AF    1            
          CN    2.42         
           D     .87         


               X_U14.x_lm741.qx 
               NPN             
       LEVEL    1            
          IS  800.000000E-18 
          BF   93.75         
          NF    1            
          BR    1            
          NR    1            
         ISS    0            
          RE    0            
          RC    0            
         CJE    0            
         VJE     .75         
         CJC    0            
         VJC     .75         
         MJC     .33         
        XCJC    1            
         CJS    0            
         VJS     .75         
          KF    0            
          AF    1            
          CN    2.42         
           D     .87         


               X_U15.x_lm741.qx 
               NPN             
       LEVEL    1            
          IS  800.000000E-18 
          BF   93.75         
          NF    1            
          BR    1            
          NR    1            
         ISS    0            
          RE    0            
          RC    0            
         CJE    0            
         VJE     .75         
         CJC    0            
         VJC     .75         
         MJC     .33         
        XCJC    1            
         CJS    0            
         VJS     .75         
          KF    0            
          AF    1            
          CN    2.42         
           D     .87         


               X_U16.x_lm741.qx 
               NPN             
       LEVEL    1            
          IS  800.000000E-18 
          BF   93.75         
          NF    1            
          BR    1            
          NR    1            
         ISS    0            
          RE    0            
          RC    0            
         CJE    0            
         VJE     .75         
         CJC    0            
         VJC     .75         
         MJC     .33         
        XCJC    1            
         CJS    0            
         VJS     .75         
          KF    0            
          AF    1            
          CN    2.42         
           D     .87         


**** 05/21/21 17:50:06 ******* PSpice 17.4.0 (Nov 2018) ******* ID# 0 ********

 ** Profile: "SCHEMATIC1-Simulare"  [ f:\facultate\an2\semestrul 2\tehnici cad\proiect\proiect-pspicefiles\schematic1\simulare.sim ] 


 ****     Junction FET MODEL PARAMETERS


******************************************************************************




               X_U17A.jx       X_U17B.jx       
               PJF             PJF             
         VTO   -1              -1            
        BETA  205.000000E-06  205.000000E-06 
          IS   25.000000E-12   25.000000E-12 


**** 05/21/21 17:50:06 ******* PSpice 17.4.0 (Nov 2018) ******* ID# 0 ********

 ** Profile: "SCHEMATIC1-Simulare"  [ f:\facultate\an2\semestrul 2\tehnici cad\proiect\proiect-pspicefiles\schematic1\simulare.sim ] 


 ****     INITIAL TRANSIENT SOLUTION       TEMPERATURE =   27.000 DEG C


******************************************************************************



 NODE   VOLTAGE     NODE   VOLTAGE     NODE   VOLTAGE     NODE   VOLTAGE


( +VCC)   12.0000  ( -VCC)  -12.0000  (N00884)   12.0000 (N01960)   20.0000     

(N01967)    6.2513 (N01971)    6.2500 (N02054)    7.2896 (N02279)    7.1537     

(N02363)   11.8040 (N18597)    6.9900 (N18770)    7.9900 (N18946)    8.9900     

(N19125)    9.9900 (N20229)   10.9900 (N21390)   11.7990 (N21394)   11.7990     

(N21398)   11.7990 (N21402)   11.7990 (N21406)   11.7990 (N21414)   11.7990     

(N21545)    3.2058 (N21549)    3.1950 (N21553)    2.1080 (N21557)    2.0039     

(N21561)    2.3155 (N21565)    2.9608 (N33107)    3.9672 (N44111)    5.9900     

(X_U17A.6)   -2.6141                  (X_U17A.7)   13.7260                      

(X_U17A.8)   13.7260                  (X_U17A.9)    0.0000                      

(X_U17B.6)-326.7E-06                  (X_U17B.7)    7.2973                      

(X_U17B.8)    7.2973                  (X_U17B.9)    0.0000                      

(X_U17A.10)    6.6962                 (X_U17A.11)  -11.5730                     

(X_U17A.12)  -11.7600                 (X_U17A.53)   11.0000                     

(X_U17A.54)  -11.0000                 (X_U17A.90)   25.6250                     

(X_U17A.91)   25.0000                 (X_U17A.92)  -25.0000                     

(X_U17A.99)    0.0000                 (X_U17B.10)    5.7313                     

(X_U17B.11)  -11.6640                 (X_U17B.12)  -11.6660                     

(X_U17B.53)   11.0000                 (X_U17B.54)  -11.0000                     

(X_U17B.90)     .1038                 (X_U17B.91)   25.0000                     

(X_U17B.92)  -25.0000                 (X_U17B.99)    0.0000                     

(X_U11.x_lm741.6)   -1.5356           (X_U11.x_lm741.7)   13.8290               

(X_U11.x_lm741.8)   13.8290           (X_U11.x_lm741.9)    0.0000               

(X_U12.x_lm741.6)   -1.5356           (X_U12.x_lm741.7)   13.8290               

(X_U12.x_lm741.8)   13.8290           (X_U12.x_lm741.9)    0.0000               

(X_U13.x_lm741.6)   -1.5356           (X_U13.x_lm741.7)   13.8290               

(X_U13.x_lm741.8)   13.8290           (X_U13.x_lm741.9)    0.0000               

(X_U14.x_lm741.6)   -1.5356           (X_U14.x_lm741.7)   13.8290               

(X_U14.x_lm741.8)   13.8290           (X_U14.x_lm741.9)    0.0000               

(X_U15.x_lm741.6)   -1.5356           (X_U15.x_lm741.7)   13.8290               

(X_U15.x_lm741.8)   13.8290           (X_U15.x_lm741.9)    0.0000               

(X_U16.x_lm741.6)   -1.5356           (X_U16.x_lm741.7)   13.8290               

(X_U16.x_lm741.8)   13.8290           (X_U16.x_lm741.9)    0.0000               

(X_U11.x_lm741.10)   11.1630          (X_U11.x_lm741.11)   12.0000              

(X_U11.x_lm741.12)   11.9180          (X_U11.x_lm741.13)   11.1630              

(X_U11.x_lm741.14)   11.1910          (X_U11.x_lm741.53)   11.0000              

(X_U11.x_lm741.54)    1.0000          (X_U11.x_lm741.90)   40.6100              

(X_U11.x_lm741.91)   40.0000          (X_U11.x_lm741.92)  -40.0000              

(X_U11.x_lm741.99)    6.0000          (X_U12.x_lm741.10)   11.1630              

(X_U12.x_lm741.11)   12.0000          (X_U12.x_lm741.12)   11.9180              

(X_U12.x_lm741.13)   11.1630          (X_U12.x_lm741.14)   11.1910              

(X_U12.x_lm741.53)   11.0000          (X_U12.x_lm741.54)    1.0000              

(X_U12.x_lm741.90)   40.6100          (X_U12.x_lm741.91)   40.0000              

(X_U12.x_lm741.92)  -40.0000          (X_U12.x_lm741.99)    6.0000              

(X_U13.x_lm741.10)   11.1630          (X_U13.x_lm741.11)   12.0000              

(X_U13.x_lm741.12)   11.9180          (X_U13.x_lm741.13)   11.1630              

(X_U13.x_lm741.14)   11.1910          (X_U13.x_lm741.53)   11.0000              

(X_U13.x_lm741.54)    1.0000          (X_U13.x_lm741.90)   40.6100              

(X_U13.x_lm741.91)   40.0000          (X_U13.x_lm741.92)  -40.0000              

(X_U13.x_lm741.99)    6.0000          (X_U14.x_lm741.10)   11.1630              

(X_U14.x_lm741.11)   12.0000          (X_U14.x_lm741.12)   11.9180              

(X_U14.x_lm741.13)   11.1630          (X_U14.x_lm741.14)   11.1910              

(X_U14.x_lm741.53)   11.0000          (X_U14.x_lm741.54)    1.0000              

(X_U14.x_lm741.90)   40.6100          (X_U14.x_lm741.91)   40.0000              

(X_U14.x_lm741.92)  -40.0000          (X_U14.x_lm741.99)    6.0000              

(X_U15.x_lm741.10)   11.1630          (X_U15.x_lm741.11)   12.0000              

(X_U15.x_lm741.12)   11.9180          (X_U15.x_lm741.13)   11.1630              

(X_U15.x_lm741.14)   11.1910          (X_U15.x_lm741.53)   11.0000              

(X_U15.x_lm741.54)    1.0000          (X_U15.x_lm741.90)   40.6100              

(X_U15.x_lm741.91)   40.0000          (X_U15.x_lm741.92)  -40.0000              

(X_U15.x_lm741.99)    6.0000          (X_U16.x_lm741.10)   11.1630              

(X_U16.x_lm741.11)   12.0000          (X_U16.x_lm741.12)   11.9180              

(X_U16.x_lm741.13)   11.1630          (X_U16.x_lm741.14)   11.1910              

(X_U16.x_lm741.53)   11.0000          (X_U16.x_lm741.54)    1.0000              

(X_U16.x_lm741.90)   40.6100          (X_U16.x_lm741.91)   40.0000              

(X_U16.x_lm741.92)  -40.0000          (X_U16.x_lm741.99)    6.0000          




    VOLTAGE SOURCE CURRENTS
    NAME         CURRENT

    V_V1        -1.607E-04
    V_V2        -6.250E-04
    V_V3        -4.800E+03
    V_V4         4.800E+03
    V_V6         6.066E-12
    V_V7         5.055E-12
    V_V8         4.045E-12
    V_V9         3.034E-12
    V_V10        2.023E-12
    V_V11        1.013E-12
    X_U17A.vb   -2.614E-05
    X_U17A.vc   -2.491E-02
    X_U17A.ve    2.431E-11
    X_U17A.vlim   2.563E-02
    X_U17A.vlp   2.515E-05
    X_U17A.vln  -5.063E-11
    X_U17B.vb   -3.267E-09
    X_U17B.vc    3.711E-12
    X_U17B.ve    1.980E-11
    X_U17B.vlim   1.038E-04
    X_U17B.vlp  -2.490E-11
    X_U17B.vln  -2.510E-11
    X_U11.x_lm741.vb  -1.536E-05
    X_U11.x_lm741.vc  -2.063E-02
    X_U11.x_lm741.ve   1.066E-11
    X_U11.x_lm741.vlim   4.061E-02
    X_U11.x_lm741.vlp   1.422E-05
    X_U11.x_lm741.vln  -8.061E-11
    X_U12.x_lm741.vb  -1.536E-05
    X_U12.x_lm741.vc  -2.060E-02
    X_U12.x_lm741.ve   1.066E-11
    X_U12.x_lm741.vlim   4.061E-02
    X_U12.x_lm741.vlp   1.422E-05
    X_U12.x_lm741.vln  -8.061E-11
    X_U13.x_lm741.vb  -1.536E-05
    X_U13.x_lm741.vc  -2.063E-02
    X_U13.x_lm741.ve   1.066E-11
    X_U13.x_lm741.vlim   4.061E-02
    X_U13.x_lm741.vlp   1.422E-05
    X_U13.x_lm741.vln  -8.061E-11
    X_U14.x_lm741.vb  -1.536E-05
    X_U14.x_lm741.vc  -2.062E-02
    X_U14.x_lm741.ve   1.066E-11
    X_U14.x_lm741.vlim   4.061E-02
    X_U14.x_lm741.vlp   1.422E-05
    X_U14.x_lm741.vln  -8.061E-11
    X_U15.x_lm741.vb  -1.536E-05
    X_U15.x_lm741.vc  -2.065E-02
    X_U15.x_lm741.ve   1.066E-11
    X_U15.x_lm741.vlim   4.061E-02
    X_U15.x_lm741.vlp   1.422E-05
    X_U15.x_lm741.vln  -8.061E-11
    X_U16.x_lm741.vb  -1.536E-05
    X_U16.x_lm741.vc  -2.052E-02
    X_U16.x_lm741.ve   1.066E-11
    X_U16.x_lm741.vlim   4.061E-02
    X_U16.x_lm741.vlp   1.423E-05
    X_U16.x_lm741.vln  -8.061E-11

    TOTAL POWER DISSIPATION   1.15E+05  WATTS



          JOB CONCLUDED

**** 05/21/21 17:50:06 ******* PSpice 17.4.0 (Nov 2018) ******* ID# 0 ********

 ** Profile: "SCHEMATIC1-Simulare"  [ f:\facultate\an2\semestrul 2\tehnici cad\proiect\proiect-pspicefiles\schematic1\simulare.sim ] 


 ****     JOB STATISTICS SUMMARY


******************************************************************************



  Total job time (using Solver 1)   =         .09
